pyocd> reset
Resetting target
0005346 D reset, core 0, type=SW_SYSTEM [cortex_m]
0005346 D Sending notification to 2 subscribers: <Notification@0x7fa08bb2e690 event=<Event.PRE_RESET: 7> source=<pyocd.coresight.cortex_m.CortexM object at 0x7fa08bb374d0> data=None> [notification]
0005346 D write_mem:000143 (ap=0x0; addr=0xe000ed0c, size=32) = 0x05fa0004 { [ap]
0005347 D write_dp:000145 (addr=0x00000008) = 0x00000000 [dap]
0005347 D [cmd:32] get_request_space(1, 08:w)[wc=0, rc=0, ba=1->1] -> (sz=1, free=14) [dap_access_cmsis_dap]
0005347 D [cmd:32] add(1, 08:w) -> [wc=1, rc=0, ba=1] [dap_access_cmsis_dap]
0005347 D trace: write_dp(addr=0x00000008, data=0x00000000) [cmsis_dap_probe]
0005347 D write_ap:000144 (addr=0x00000000) = 0x23000012 [dap]
0005347 D [cmd:32] get_request_space(1, 01:w)[wc=1, rc=0, ba=1->0] -> (sz=1, free=11, delta=-253) [dap_access_cmsis_dap]
0005347 D [cmd:32] add(1, 01:w) -> [wc=2, rc=0, ba=0] [dap_access_cmsis_dap]
0005347 D trace: write_ap(addr=0x00000000, data=0x23000012) [cmsis_dap_probe]
0005347 D write_ap:000146 (addr=0x00000004) = 0xe000ed0c [dap]
0005347 D [cmd:32] get_request_space(1, 05:w)[wc=2, rc=0, ba=0->0] -> (sz=1, free=10, delta=-252) [dap_access_cmsis_dap]
0005347 D [cmd:32] add(1, 05:w) -> [wc=3, rc=0, ba=0] [dap_access_cmsis_dap]
0005347 D trace: write_ap(addr=0x00000004, data=0xe000ed0c) [cmsis_dap_probe]
0005347 D write_ap:000147 (addr=0x0000000c) = 0x05fa0004 [dap]
0005347 D [cmd:32] get_request_space(1, 0d:w)[wc=3, rc=0, ba=0->0] -> (sz=1, free=9, delta=-251) [dap_access_cmsis_dap]
0005347 D [cmd:32] add(1, 0d:w) -> [wc=4, rc=0, ba=0] [dap_access_cmsis_dap]
0005347 D trace: write_ap(addr=0x0000000c, data=0x05fa0004) [cmsis_dap_probe]
0005347 D write_mem:000143 } [ap]
0005348 D trace: flush [cmsis_dap_probe]
0005348 D flush: sending cmd:32; reading 0 outstanding [dap_access_cmsis_dap]
0005348 D [cmd:32] _send_packet: sending [dap_access_cmsis_dap]
0005348 D   USB OUT> (23) 05 00 04 08 00 00 00 00 01 12 00 00 23 05 0c ed 00 e0 0d 04 00 fa 05 [pyusb_backend]
0005348 D [cmd:33] New _Command [dap_access_cmsis_dap]
0005349 D [cmd:32] _read_packet: reading [dap_access_cmsis_dap]
0005349 D   USB IN < (64) 05 04 07 01 00 01 01 00 00 00 00 00 00 00 00 00 00 00 00 03 00 00 00 b0 00 00 00 2b 00 00 00 00 00 00 00 0d 00 00 00 e0 00 00 00 05 00 00 00 b1 [pyusb_backend]
0005350 D   USB RD < (64) 05 04 07 01 00 01 01 00 00 00 00 00 00 00 00 00 00 00 00 03 00 00 00 b0 00 00 00 2b 00 00 00 00 00 00 00 0d 00 00 00 e0 00 00 00 05 00 00 00 b1 [pyusb_backend]
0005350 D [cmd:32] _read_packet: got exception TransferError('No ACK received'); aborting all transfers! [dap_access_cmsis_dap]
0005350 D aborting 0 pending reads after exception TransferError('No ACK received') [dap_access_cmsis_dap]
0005350 D [cmd:34] New _Command [dap_access_cmsis_dap]
0005350 D trace: error from flush: TransferError('No ACK received') [cmsis_dap_probe]
0005350 D trace: flush [cmsis_dap_probe]
0005450 D trace: read_dp(addr=0x00000004) -> ... [cmsis_dap_probe]
0005450 D [cmd:34] get_request_space(1, 06:r)[wc=0, rc=0, ba=1->1] -> (sz=1, free=15) [dap_access_cmsis_dap]
0005450 D [cmd:34] add(1, 06:r) -> [wc=0, rc=1, ba=1] [dap_access_cmsis_dap]
0005450 D flush: sending cmd:34; reading 0 outstanding [dap_access_cmsis_dap]
0005450 D [cmd:34] _send_packet: sending [dap_access_cmsis_dap]
0005450 D   USB OUT> (5) 06 00 01 00 06 [pyusb_backend]
0005451 D [cmd:35] New _Command [dap_access_cmsis_dap]
0005451 D [cmd:34] _read_packet: reading [dap_access_cmsis_dap]
0005452 D   USB IN < (64) 06 00 00 07 00 01 01 00 00 00 00 00 00 00 00 00 00 00 00 03 00 00 00 b0 00 00 00 2b 00 00 00 00 00 00 00 0d 00 00 00 e0 00 00 00 05 00 00 00 b1 [pyusb_backend]
0005453 D   USB RD < (64) 06 00 00 07 00 01 01 00 00 00 00 00 00 00 00 00 00 00 00 03 00 00 00 b0 00 00 00 2b 00 00 00 00 00 00 00 0d 00 00 00 e0 00 00 00 05 00 00 00 b1 [pyusb_backend]
0005453 D [cmd:34] _read_packet: got exception TransferError('No ACK received'); aborting all transfers! [dap_access_cmsis_dap]
0005453 D aborting 0 pending reads after exception TransferError('No ACK received') [dap_access_cmsis_dap]
0005453 D [cmd:36] New _Command [dap_access_cmsis_dap]
0005453 D trace: ... read_dp(addr=0x00000004) -> error(No ACK received) [cmsis_dap_probe]
0005453 D read_dp:000148 (addr=0x00000004) -> error (No ACK received) [dap]
0005453 D error:000148 No ACK received [dap]
0005453 D trace: flush [cmsis_dap_probe]
0005503 D trace: read_dp(addr=0x00000004) -> ... [cmsis_dap_probe]
0005503 D [cmd:36] get_request_space(1, 06:r)[wc=0, rc=0, ba=1->1] -> (sz=1, free=15) [dap_access_cmsis_dap]
0005503 D [cmd:36] add(1, 06:r) -> [wc=0, rc=1, ba=1] [dap_access_cmsis_dap]
0005503 D flush: sending cmd:36; reading 0 outstanding [dap_access_cmsis_dap]
0005503 D [cmd:36] _send_packet: sending [dap_access_cmsis_dap]
0005503 D   USB OUT> (5) 06 00 01 00 06 [pyusb_backend]
0005504 D [cmd:37] New _Command [dap_access_cmsis_dap]
0005504 D [cmd:36] _read_packet: reading [dap_access_cmsis_dap]
0005505 D   USB IN < (64) 06 00 00 07 00 01 01 00 00 00 00 00 00 00 00 00 00 00 00 03 00 00 00 b0 00 00 00 2b 00 00 00 00 00 00 00 0d 00 00 00 e0 00 00 00 05 00 00 00 b1 [pyusb_backend]
0005506 D   USB RD < (64) 06 00 00 07 00 01 01 00 00 00 00 00 00 00 00 00 00 00 00 03 00 00 00 b0 00 00 00 2b 00 00 00 00 00 00 00 0d 00 00 00 e0 00 00 00 05 00 00 00 b1 [pyusb_backend]
0005506 D [cmd:36] _read_packet: got exception TransferError('No ACK received'); aborting all transfers! [dap_access_cmsis_dap]
0005506 D aborting 0 pending reads after exception TransferError('No ACK received') [dap_access_cmsis_dap]
0005506 D [cmd:38] New _Command [dap_access_cmsis_dap]
0005506 D trace: ... read_dp(addr=0x00000004) -> error(No ACK received) [cmsis_dap_probe]
0005506 D read_dp:000149 (addr=0x00000004) -> error (No ACK received) [dap]
0005506 D error:000149 No ACK received [dap]
0005506 D trace: flush [cmsis_dap_probe]
0005506 I DAP is not accessible after reset; attempting reconnect [dap]
0005556 D trace: read_dp(addr=0x00000004) -> ... [cmsis_dap_probe]
0005556 D [cmd:38] get_request_space(1, 06:r)[wc=0, rc=0, ba=1->1] -> (sz=1, free=15) [dap_access_cmsis_dap]
0005556 D [cmd:38] add(1, 06:r) -> [wc=0, rc=1, ba=1] [dap_access_cmsis_dap]
0005556 D flush: sending cmd:38; reading 0 outstanding [dap_access_cmsis_dap]
0005557 D [cmd:38] _send_packet: sending [dap_access_cmsis_dap]
0005557 D   USB OUT> (5) 06 00 01 00 06 [pyusb_backend]
0005557 D [cmd:39] New _Command [dap_access_cmsis_dap]
0005557 D [cmd:38] _read_packet: reading [dap_access_cmsis_dap]
0005559 D   USB IN < (64) 06 00 00 07 00 01 01 00 00 00 00 00 00 00 00 00 00 00 00 03 00 00 00 b0 00 00 00 2b 00 00 00 00 00 00 00 0d 00 00 00 e0 00 00 00 05 00 00 00 b1 [pyusb_backend]
0005559 D   USB RD < (64) 06 00 00 07 00 01 01 00 00 00 00 00 00 00 00 00 00 00 00 03 00 00 00 b0 00 00 00 2b 00 00 00 00 00 00 00 0d 00 00 00 e0 00 00 00 05 00 00 00 b1 [pyusb_backend]
0005559 D [cmd:38] _read_packet: got exception TransferError('No ACK received'); aborting all transfers! [dap_access_cmsis_dap]
0005559 D aborting 0 pending reads after exception TransferError('No ACK received') [dap_access_cmsis_dap]
0005559 D [cmd:40] New _Command [dap_access_cmsis_dap]
0005559 D trace: ... read_dp(addr=0x00000004) -> error(No ACK received) [cmsis_dap_probe]
0005559 D read_dp:000150 (addr=0x00000004) -> error (No ACK received) [dap]
0005559 D error:000150 No ACK received [dap]
0005559 D trace: flush [cmsis_dap_probe]
0005559 D Running task lock_probe [sequencer]
0005559 D Running task connect [sequencer]
0005559 D Already connected with SWD [dap]
0005560 D trace: swj_sequence(length=51, bits=ffffffffffffff) [cmsis_dap_probe]
0005560 D   USB OUT> (9) 12 33 ff ff ff ff ff ff ff [pyusb_backend]
0005561 D   USB IN < (64) 12 00 00 07 00 01 01 00 00 00 00 00 00 00 00 00 00 00 00 03 00 00 00 b0 00 00 00 2b 00 00 00 00 00 00 00 0d 00 00 00 e0 00 00 00 05 00 00 00 b1 [pyusb_backend]
0005562 D   USB RD < (64) 12 00 00 07 00 01 01 00 00 00 00 00 00 00 00 00 00 00 00 03 00 00 00 b0 00 00 00 2b 00 00 00 00 00 00 00 0d 00 00 00 e0 00 00 00 05 00 00 00 b1 [pyusb_backend]
0005562 D Sending deprecated SWJ sequence to select SWD [swj]
0005562 D trace: swj_sequence(length=16, bits=e79e) [cmsis_dap_probe]
0005562 D   USB OUT> (4) 12 10 9e e7 [pyusb_backend]
0005563 D   USB IN < (64) 12 00 00 07 00 01 01 00 00 00 00 00 00 00 00 00 00 00 00 03 00 00 00 b0 00 00 00 2b 00 00 00 00 00 00 00 0d 00 00 00 e0 00 00 00 05 00 00 00 b1 [pyusb_backend]
0005564 D   USB RD < (64) 12 00 00 07 00 01 01 00 00 00 00 00 00 00 00 00 00 00 00 03 00 00 00 b0 00 00 00 2b 00 00 00 00 00 00 00 0d 00 00 00 e0 00 00 00 05 00 00 00 b1 [pyusb_backend]
0005564 D trace: swj_sequence(length=51, bits=ffffffffffffff) [cmsis_dap_probe]
0005564 D   USB OUT> (9) 12 33 ff ff ff ff ff ff ff [pyusb_backend]
0005565 D   USB IN < (64) 12 00 00 07 00 01 01 00 00 00 00 00 00 00 00 00 00 00 00 03 00 00 00 b0 00 00 00 2b 00 00 00 00 00 00 00 0d 00 00 00 e0 00 00 00 05 00 00 00 b1 [pyusb_backend]
0005566 D   USB RD < (64) 12 00 00 07 00 01 01 00 00 00 00 00 00 00 00 00 00 00 00 03 00 00 00 b0 00 00 00 2b 00 00 00 00 00 00 00 0d 00 00 00 e0 00 00 00 05 00 00 00 b1 [pyusb_backend]
0005566 D trace: swj_sequence(length=8, bits=0) [cmsis_dap_probe]
0005566 D   USB OUT> (3) 12 08 00 [pyusb_backend]
0005567 D   USB IN < (64) 12 00 00 07 00 01 01 00 00 00 00 00 00 00 00 00 00 00 00 03 00 00 00 b0 00 00 00 2b 00 00 00 00 00 00 00 0d 00 00 00 e0 00 00 00 05 00 00 00 b1 [pyusb_backend]
0005568 D   USB RD < (64) 12 00 00 07 00 01 01 00 00 00 00 00 00 00 00 00 00 00 00 03 00 00 00 b0 00 00 00 2b 00 00 00 00 00 00 00 0d 00 00 00 e0 00 00 00 05 00 00 00 b1 [pyusb_backend]
0005568 D [cmd:40] get_request_space(1, 02:r)[wc=0, rc=0, ba=1->1] -> (sz=1, free=15) [dap_access_cmsis_dap]
0005568 D [cmd:40] add(1, 02:r) -> [wc=0, rc=1, ba=1] [dap_access_cmsis_dap]
0005568 D flush: sending cmd:40; reading 0 outstanding [dap_access_cmsis_dap]
0005568 D [cmd:40] _send_packet: sending [dap_access_cmsis_dap]
0005568 D   USB OUT> (5) 06 00 01 00 02 [pyusb_backend]
0005568 D [cmd:41] New _Command [dap_access_cmsis_dap]
0005568 D [cmd:40] _read_packet: reading [dap_access_cmsis_dap]
0005569 D   USB IN < (64) 06 01 00 01 77 14 a0 2b 00 00 00 00 00 00 00 00 00 00 00 03 00 00 00 b0 00 00 00 2b 00 00 00 00 00 00 00 0d 00 00 00 e0 00 00 00 05 00 00 00 b1 [pyusb_backend]
0005570 D   USB RD < (64) 06 01 00 01 77 14 a0 2b 00 00 00 00 00 00 00 00 00 00 00 03 00 00 00 b0 00 00 00 2b 00 00 00 00 00 00 00 0d 00 00 00 e0 00 00 00 05 00 00 00 b1 [pyusb_backend]
0005570 D trace: read_dp(addr=0x00000000) -> 0x2ba01477 [cmsis_dap_probe]
0005570 D DPConnector read DP_IDR = 0x2ba01477 [dap]
0005570 D DP IDR = 0x2ba01477 (v1 rev2) [dap]
0005570 D Running task clear_sticky_err [sequencer]
0005570 D write_dp:000151 (addr=0x00000000) = 0x0000001e [dap]
0005570 D [cmd:41] get_request_space(1, 00:w)[wc=0, rc=0, ba=1->1] -> (sz=1, free=14) [dap_access_cmsis_dap]
0005570 D [cmd:41] add(1, 00:w) -> [wc=1, rc=0, ba=1] [dap_access_cmsis_dap]
0005570 D trace: write_dp(addr=0x00000000, data=0x0000001e) [cmsis_dap_probe]
0005570 D Running task power_up_debug [sequencer]
0005570 D write_dp:000153 (addr=0x00000008) = 0x00000000 [dap]
0005570 D [cmd:41] get_request_space(1, 08:w)[wc=1, rc=0, ba=1->0] -> (sz=1, free=11, delta=-253) [dap_access_cmsis_dap]
0005570 D [cmd:41] add(1, 08:w) -> [wc=2, rc=0, ba=0] [dap_access_cmsis_dap]
0005570 D trace: write_dp(addr=0x00000008, data=0x00000000) [cmsis_dap_probe]
0005570 D write_dp:000152 (addr=0x00000004) = 0x50000f00 [dap]
0005570 D [cmd:41] get_request_space(1, 04:w)[wc=2, rc=0, ba=0->0] -> (sz=1, free=10, delta=-252) [dap_access_cmsis_dap]
0005570 D [cmd:41] add(1, 04:w) -> [wc=3, rc=0, ba=0] [dap_access_cmsis_dap]
0005570 D trace: write_dp(addr=0x00000004, data=0x50000f00) [cmsis_dap_probe]
0005570 D trace: read_dp(addr=0x00000004) -> ... [cmsis_dap_probe]
0005570 D [cmd:41] get_request_space(1, 06:r)[wc=3, rc=0, ba=0->0] -> (sz=1, free=15, delta=-251) [dap_access_cmsis_dap]
0005570 D [cmd:41] add(1, 06:r) -> [wc=3, rc=1, ba=0] [dap_access_cmsis_dap]
0005570 D flush: sending cmd:41; reading 0 outstanding [dap_access_cmsis_dap]
0005570 D [cmd:41] _send_packet: sending [dap_access_cmsis_dap]
0005570 D   USB OUT> (19) 05 00 04 00 1e 00 00 00 08 00 00 00 00 04 00 0f 00 50 06 [pyusb_backend]
0005571 D [cmd:42] New _Command [dap_access_cmsis_dap]
0005571 D [cmd:41] _read_packet: reading [dap_access_cmsis_dap]
0005572 D   USB IN < (64) 05 04 01 40 0f 00 f0 2b 00 00 00 00 00 00 00 00 00 00 00 03 00 00 00 b0 00 00 00 2b 00 00 00 00 00 00 00 0d 00 00 00 e0 00 00 00 05 00 00 00 b1 [pyusb_backend]
0005573 D   USB RD < (64) 05 04 01 40 0f 00 f0 2b 00 00 00 00 00 00 00 00 00 00 00 03 00 00 00 b0 00 00 00 2b 00 00 00 00 00 00 00 0d 00 00 00 e0 00 00 00 05 00 00 00 b1 [pyusb_backend]
0005573 D trace: ... read_dp(addr=0x00000004) -> 0xf0000f40 [cmsis_dap_probe]
0005573 D read_dp:000154 (addr=0x00000004) -> 0xf0000f40 [dap]
0005573 D Running task unlock_probe [sequencer]
0005623 D trace: read_dp(addr=0x00000004) -> ... [cmsis_dap_probe]
0005623 D [cmd:42] get_request_space(1, 06:r)[wc=0, rc=0, ba=1->1] -> (sz=1, free=15) [dap_access_cmsis_dap]
0005623 D [cmd:42] add(1, 06:r) -> [wc=0, rc=1, ba=1] [dap_access_cmsis_dap]
0005623 D flush: sending cmd:42; reading 0 outstanding [dap_access_cmsis_dap]
0005623 D [cmd:42] _send_packet: sending [dap_access_cmsis_dap]
0005623 D   USB OUT> (5) 06 00 01 00 06 [pyusb_backend]
0005624 D [cmd:43] New _Command [dap_access_cmsis_dap]
0005625 D [cmd:42] _read_packet: reading [dap_access_cmsis_dap]
0005625 D   USB IN < (64) 06 01 00 01 40 0f 00 f0 00 00 00 00 00 00 00 00 00 00 00 03 00 00 00 b0 00 00 00 2b 00 00 00 00 00 00 00 0d 00 00 00 e0 00 00 00 05 00 00 00 b1 [pyusb_backend]
0005626 D   USB RD < (64) 06 01 00 01 40 0f 00 f0 00 00 00 00 00 00 00 00 00 00 00 03 00 00 00 b0 00 00 00 2b 00 00 00 00 00 00 00 0d 00 00 00 e0 00 00 00 05 00 00 00 b1 [pyusb_backend]
0005626 D trace: ... read_dp(addr=0x00000004) -> 0xf0000f40 [cmsis_dap_probe]
0005626 D read_dp:000155 (addr=0x00000004) -> 0xf0000f40 [dap]
0005626 D read_mem:000156 (ap=0x0; addr=0xe000edf0, size=32) { [ap]
0005626 D write_ap:000157 cached (ap=0x0; addr=0x00000000) = 0x23000012 [ap]
0005626 D write_ap:000158 (addr=0x00000004) = 0xe000edf0 [dap]
0005626 D [cmd:43] get_request_space(1, 05:w)[wc=0, rc=0, ba=1->1] -> (sz=1, free=14) [dap_access_cmsis_dap]
0005626 D [cmd:43] add(1, 05:w) -> [wc=1, rc=0, ba=1] [dap_access_cmsis_dap]
0005626 D trace: write_ap(addr=0x00000004, data=0xe000edf0) [cmsis_dap_probe]
0005626 D trace: read_ap(addr=0x0000000c) -> ... [cmsis_dap_probe]
0005626 D [cmd:43] get_request_space(1, 0f:r)[wc=1, rc=0, ba=1->0] -> (sz=1, free=15, delta=-253) [dap_access_cmsis_dap]
0005626 D [cmd:43] add(1, 0f:r) -> [wc=1, rc=1, ba=0] [dap_access_cmsis_dap]
0005626 D read_ap:000159 (addr=0x0000000c) -> ... [dap]
0005626 D flush: sending cmd:43; reading 0 outstanding [dap_access_cmsis_dap]
0005626 D [cmd:43] _send_packet: sending [dap_access_cmsis_dap]
0005627 D   USB OUT> (9) 05 00 02 05 f0 ed 00 e0 0f [pyusb_backend]
0005627 D [cmd:44] New _Command [dap_access_cmsis_dap]
0005627 D [cmd:43] _read_packet: reading [dap_access_cmsis_dap]
0005628 D   USB IN < (64) 05 02 01 01 00 01 03 f0 00 00 00 00 00 00 00 00 00 00 00 03 00 00 00 b0 00 00 00 2b 00 00 00 00 00 00 00 0d 00 00 00 e0 00 00 00 05 00 00 00 b1 [pyusb_backend]
0005629 D   USB RD < (64) 05 02 01 01 00 01 03 f0 00 00 00 00 00 00 00 00 00 00 00 03 00 00 00 b0 00 00 00 2b 00 00 00 00 00 00 00 0d 00 00 00 e0 00 00 00 05 00 00 00 b1 [pyusb_backend]
0005629 D trace: ... read_ap(addr=0x0000000c) -> 0x03010001 [cmsis_dap_probe]
0005629 D read_ap:000159 ...(addr=0x0000000c) -> 0x03010001 [dap]
0005629 D read_mem:000156 (ap=0x0; addr=0xe000edf0, size=32) -> 0x03010001 } [ap]
0005639 D read_mem:000160 (ap=0x0; addr=0xe000edf0, size=32) { [ap]
0005639 D write_ap:000161 cached (ap=0x0; addr=0x00000000) = 0x23000012 [ap]
0005639 D write_ap:000162 (addr=0x00000004) = 0xe000edf0 [dap]
0005639 D [cmd:44] get_request_space(1, 05:w)[wc=0, rc=0, ba=1->1] -> (sz=1, free=14) [dap_access_cmsis_dap]
0005639 D [cmd:44] add(1, 05:w) -> [wc=1, rc=0, ba=1] [dap_access_cmsis_dap]
0005639 D trace: write_ap(addr=0x00000004, data=0xe000edf0) [cmsis_dap_probe]
0005639 D trace: read_ap(addr=0x0000000c) -> ... [cmsis_dap_probe]
0005640 D [cmd:44] get_request_space(1, 0f:r)[wc=1, rc=0, ba=1->0] -> (sz=1, free=15, delta=-253) [dap_access_cmsis_dap]
0005640 D [cmd:44] add(1, 0f:r) -> [wc=1, rc=1, ba=0] [dap_access_cmsis_dap]
0005640 D read_ap:000163 (addr=0x0000000c) -> ... [dap]
0005640 D flush: sending cmd:44; reading 0 outstanding [dap_access_cmsis_dap]
0005640 D [cmd:44] _send_packet: sending [dap_access_cmsis_dap]
0005640 D   USB OUT> (9) 05 00 02 05 f0 ed 00 e0 0f [pyusb_backend]
0005640 D [cmd:45] New _Command [dap_access_cmsis_dap]
0005640 D [cmd:44] _read_packet: reading [dap_access_cmsis_dap]
0005641 D   USB IN < (64) 05 02 01 01 00 01 01 f0 00 00 00 00 00 00 00 00 00 00 00 03 00 00 00 b0 00 00 00 2b 00 00 00 00 00 00 00 0d 00 00 00 e0 00 00 00 05 00 00 00 b1 [pyusb_backend]
0005642 D   USB RD < (64) 05 02 01 01 00 01 01 f0 00 00 00 00 00 00 00 00 00 00 00 03 00 00 00 b0 00 00 00 2b 00 00 00 00 00 00 00 0d 00 00 00 e0 00 00 00 05 00 00 00 b1 [pyusb_backend]
0005642 D trace: ... read_ap(addr=0x0000000c) -> 0x01010001 [cmsis_dap_probe]
0005642 D read_ap:000163 ...(addr=0x0000000c) -> 0x01010001 [dap]
0005642 D read_mem:000160 (ap=0x0; addr=0xe000edf0, size=32) -> 0x01010001 } [ap]
0005642 D read_mem:000164 (ap=0x0; addr=0xe000edf0, size=32) { [ap]
0005642 D write_ap:000165 cached (ap=0x0; addr=0x00000000) = 0x23000012 [ap]
0005642 D write_ap:000166 (addr=0x00000004) = 0xe000edf0 [dap]
0005642 D [cmd:45] get_request_space(1, 05:w)[wc=0, rc=0, ba=1->1] -> (sz=1, free=14) [dap_access_cmsis_dap]
0005642 D [cmd:45] add(1, 05:w) -> [wc=1, rc=0, ba=1] [dap_access_cmsis_dap]
0005642 D trace: write_ap(addr=0x00000004, data=0xe000edf0) [cmsis_dap_probe]
0005642 D trace: read_ap(addr=0x0000000c) -> ... [cmsis_dap_probe]
0005642 D [cmd:45] get_request_space(1, 0f:r)[wc=1, rc=0, ba=1->0] -> (sz=1, free=15, delta=-253) [dap_access_cmsis_dap]
0005642 D [cmd:45] add(1, 0f:r) -> [wc=1, rc=1, ba=0] [dap_access_cmsis_dap]
0005642 D read_ap:000167 (addr=0x0000000c) -> ... [dap]
0005642 D flush: sending cmd:45; reading 0 outstanding [dap_access_cmsis_dap]
0005642 D [cmd:45] _send_packet: sending [dap_access_cmsis_dap]
0005643 D   USB OUT> (9) 05 00 02 05 f0 ed 00 e0 0f [pyusb_backend]
0005643 D [cmd:46] New _Command [dap_access_cmsis_dap]
0005644 D [cmd:45] _read_packet: reading [dap_access_cmsis_dap]
0005644 D   USB IN < (64) 05 02 01 01 00 01 01 f0 00 00 00 00 00 00 00 00 00 00 00 03 00 00 00 b0 00 00 00 2b 00 00 00 00 00 00 00 0d 00 00 00 e0 00 00 00 05 00 00 00 b1 [pyusb_backend]
0005645 D   USB RD < (64) 05 02 01 01 00 01 01 f0 00 00 00 00 00 00 00 00 00 00 00 03 00 00 00 b0 00 00 00 2b 00 00 00 00 00 00 00 0d 00 00 00 e0 00 00 00 05 00 00 00 b1 [pyusb_backend]
0005645 D trace: ... read_ap(addr=0x0000000c) -> 0x01010001 [cmsis_dap_probe]
0005645 D read_ap:000167 ...(addr=0x0000000c) -> 0x01010001 [dap]
0005645 D read_mem:000164 (ap=0x0; addr=0xe000edf0, size=32) -> 0x01010001 } [ap]
0005645 D Sending notification to 2 subscribers: <Notification@0x7fa0935bcbd0 event=<Event.POST_RESET: 8> source=<pyocd.coresight.cortex_m.CortexM object at 0x7fa08bb374d0> data=None> [notification]