pyocd> reset -h sw_core
Resetting target with halt
0098312 D set reset catch, core 0 [cortex_m]
0098312 D halting core 0 [cortex_m]
0098313 D Not sending notification because no subscribers: event=Event.PRE_HALT [notification]
0098313 D write_mem:002078 (ap=0x0; addr=0xe000edf0, size=32) = 0xa05f0003 { [ap]
0098313 D write_dp:002080 (addr=0x00000008) = 0x00000000 [dap]
0098313 D [cmd:543] get_request_space(1, 08:w)[wc=0, rc=0, ba=1->1] -> (sz=1, free=14) [dap_access_cmsis_dap]
0098314 D [cmd:543] add(1, 08:w) -> [wc=1, rc=0, ba=1] [dap_access_cmsis_dap]
0098314 D trace: write_dp(addr=0x00000008, data=0x00000000) [cmsis_dap_probe]
0098314 D write_ap:002079 (addr=0x00000000) = 0x23000012 [dap]
0098314 D [cmd:543] get_request_space(1, 01:w)[wc=1, rc=0, ba=1->0] -> (sz=1, free=11, delta=-253) [dap_access_cmsis_dap]
0098314 D [cmd:543] add(1, 01:w) -> [wc=2, rc=0, ba=0] [dap_access_cmsis_dap]
0098315 D trace: write_ap(addr=0x00000000, data=0x23000012) [cmsis_dap_probe]
0098315 D write_ap:002081 (addr=0x00000004) = 0xe000edf0 [dap]
0098315 D [cmd:543] get_request_space(1, 05:w)[wc=2, rc=0, ba=0->0] -> (sz=1, free=10, delta=-252) [dap_access_cmsis_dap]
0098315 D [cmd:543] add(1, 05:w) -> [wc=3, rc=0, ba=0] [dap_access_cmsis_dap]
0098316 D trace: write_ap(addr=0x00000004, data=0xe000edf0) [cmsis_dap_probe]
0098316 D write_ap:002082 (addr=0x0000000c) = 0xa05f0003 [dap]
0098316 D [cmd:543] get_request_space(1, 0d:w)[wc=3, rc=0, ba=0->0] -> (sz=1, free=9, delta=-251) [dap_access_cmsis_dap]
0098316 D [cmd:543] add(1, 0d:w) -> [wc=4, rc=0, ba=0] [dap_access_cmsis_dap]
0098317 D trace: write_ap(addr=0x0000000c, data=0xa05f0003) [cmsis_dap_probe]
0098317 D write_mem:002078 } [ap]
0098317 D trace: flush [cmsis_dap_probe]
0098317 D flush: sending cmd:543; reading 0 outstanding [dap_access_cmsis_dap]
0098317 D [cmd:543] _send_packet: sending [dap_access_cmsis_dap]
0098317 D   USB OUT> (23) 05 00 04 08 00 00 00 00 01 12 00 00 23 05 f0 ed 00 e0 0d 03 00 5f a0 [pyusb_backend]
0098319 D [cmd:544] New _Command [dap_access_cmsis_dap]
0098319 D [cmd:543] _read_packet: reading [dap_access_cmsis_dap]
0098320 D   USB IN < (64) 05 04 01 01 00 01 01 f0 00 00 01 00 00 00 00 00 00 00 00 03 00 00 00 b0 00 00 00 2b 00 00 00 00 00 00 00 0d 00 00 00 e0 00 00 00 05 00 00 00 b1 [pyusb_backend]
0098320 D   USB RD < (64) 05 04 01 01 00 01 01 f0 00 00 01 00 00 00 00 00 00 00 00 03 00 00 00 b0 00 00 00 2b 00 00 00 00 00 00 00 0d 00 00 00 e0 00 00 00 05 00 00 00 b1 [pyusb_backend]
0098320 D Not sending notification because no subscribers: event=Event.POST_HALT [notification]
0098321 D read_mem:002083 (ap=0x0; addr=0xe000edfc, size=32) { [ap]
0098321 D write_ap:002084 cached (ap=0x0; addr=0x00000000) = 0x23000012 [ap]
0098321 D write_ap:002085 (addr=0x00000004) = 0xe000edfc [dap]
0098321 D [cmd:544] get_request_space(1, 05:w)[wc=0, rc=0, ba=1->1] -> (sz=1, free=14) [dap_access_cmsis_dap]
0098321 D [cmd:544] add(1, 05:w) -> [wc=1, rc=0, ba=1] [dap_access_cmsis_dap]
0098321 D trace: write_ap(addr=0x00000004, data=0xe000edfc) [cmsis_dap_probe]
0098321 D trace: read_ap(addr=0x0000000c) -> ... [cmsis_dap_probe]
0098322 D [cmd:544] get_request_space(1, 0f:r)[wc=1, rc=0, ba=1->0] -> (sz=1, free=15, delta=-253) [dap_access_cmsis_dap]
0098322 D [cmd:544] add(1, 0f:r) -> [wc=1, rc=1, ba=0] [dap_access_cmsis_dap]
0098322 D read_ap:002086 (addr=0x0000000c) -> ... [dap]
0098322 D flush: sending cmd:544; reading 0 outstanding [dap_access_cmsis_dap]
0098322 D [cmd:544] _send_packet: sending [dap_access_cmsis_dap]
0098323 D   USB OUT> (9) 05 00 02 05 fc ed 00 e0 0f [pyusb_backend]
0098324 D [cmd:545] New _Command [dap_access_cmsis_dap]
0098324 D [cmd:544] _read_packet: reading [dap_access_cmsis_dap]
0098325 D   USB IN < (64) 05 02 01 00 00 00 01 f0 00 00 01 00 00 00 00 00 00 00 00 03 00 00 00 b0 00 00 00 2b 00 00 00 00 00 00 00 0d 00 00 00 e0 00 00 00 05 00 00 00 b1 [pyusb_backend]
0098325 D   USB RD < (64) 05 02 01 00 00 00 01 f0 00 00 01 00 00 00 00 00 00 00 00 03 00 00 00 b0 00 00 00 2b 00 00 00 00 00 00 00 0d 00 00 00 e0 00 00 00 05 00 00 00 b1 [pyusb_backend]
0098325 D trace: ... read_ap(addr=0x0000000c) -> 0x01000000 [cmsis_dap_probe]
0098325 D read_ap:002086 ...(addr=0x0000000c) -> 0x01000000 [dap]
0098326 D read_mem:002083 (ap=0x0; addr=0xe000edfc, size=32) -> 0x01000000 } [ap]
0098326 D write_mem:002087 (ap=0x0; addr=0xe000edfc, size=32) = 0x01000001 { [ap]
0098326 D write_ap:002088 cached (ap=0x0; addr=0x00000000) = 0x23000012 [ap]
0098327 D write_ap:002089 (addr=0x00000004) = 0xe000edfc [dap]
0098327 D [cmd:545] get_request_space(1, 05:w)[wc=0, rc=0, ba=1->1] -> (sz=1, free=14) [dap_access_cmsis_dap]
0098327 D [cmd:545] add(1, 05:w) -> [wc=1, rc=0, ba=1] [dap_access_cmsis_dap]
0098328 D trace: write_ap(addr=0x00000004, data=0xe000edfc) [cmsis_dap_probe]
0098328 D write_ap:002090 (addr=0x0000000c) = 0x01000001 [dap]
0098328 D [cmd:545] get_request_space(1, 0d:w)[wc=1, rc=0, ba=1->0] -> (sz=1, free=11, delta=-253) [dap_access_cmsis_dap]
0098329 D [cmd:545] add(1, 0d:w) -> [wc=2, rc=0, ba=0] [dap_access_cmsis_dap]
0098329 D trace: write_ap(addr=0x0000000c, data=0x01000001) [cmsis_dap_probe]
0098330 D write_mem:002087 } [ap]
0098330 D reset, core 0, type=SW_CORE [cortex_m]
0098330 D Sending notification to 2 subscribers: <Notification@0x7fa08bb3e090 event=<Event.PRE_RESET: 7> source=<pyocd.coresight.cortex_m.CortexM object at 0x7fa08bb374d0> data=None> [notification]
0098330 D write_mem:002091 (ap=0x0; addr=0xe000ed0c, size=32) = 0x05fa0001 { [ap]
0098331 D write_dp:002093 (addr=0x00000008) = 0x00000000 [dap]
0098331 D [cmd:545] get_request_space(1, 08:w)[wc=2, rc=0, ba=0->0] -> (sz=1, free=10, delta=-252) [dap_access_cmsis_dap]
0098331 D [cmd:545] add(1, 08:w) -> [wc=3, rc=0, ba=0] [dap_access_cmsis_dap]
0098332 D trace: write_dp(addr=0x00000008, data=0x00000000) [cmsis_dap_probe]
0098332 D write_ap:002092 (addr=0x00000000) = 0x23000012 [dap]
0098332 D [cmd:545] get_request_space(1, 01:w)[wc=3, rc=0, ba=0->0] -> (sz=1, free=9, delta=-251) [dap_access_cmsis_dap]
0098332 D [cmd:545] add(1, 01:w) -> [wc=4, rc=0, ba=0] [dap_access_cmsis_dap]
0098333 D trace: write_ap(addr=0x00000000, data=0x23000012) [cmsis_dap_probe]
0098333 D write_ap:002094 (addr=0x00000004) = 0xe000ed0c [dap]
0098333 D [cmd:545] get_request_space(1, 05:w)[wc=4, rc=0, ba=0->0] -> (sz=1, free=8, delta=-250) [dap_access_cmsis_dap]
0098333 D [cmd:545] add(1, 05:w) -> [wc=5, rc=0, ba=0] [dap_access_cmsis_dap]
0098334 D trace: write_ap(addr=0x00000004, data=0xe000ed0c) [cmsis_dap_probe]
0098334 D write_ap:002095 (addr=0x0000000c) = 0x05fa0001 [dap]
0098334 D [cmd:545] get_request_space(1, 0d:w)[wc=5, rc=0, ba=0->0] -> (sz=1, free=7, delta=-249) [dap_access_cmsis_dap]
0098334 D [cmd:545] add(1, 0d:w) -> [wc=6, rc=0, ba=0] [dap_access_cmsis_dap]
0098335 D trace: write_ap(addr=0x0000000c, data=0x05fa0001) [cmsis_dap_probe]
0098335 D write_mem:002091 } [ap]
0098335 D trace: flush [cmsis_dap_probe]
0098336 D flush: sending cmd:545; reading 0 outstanding [dap_access_cmsis_dap]
0098336 D [cmd:545] _send_packet: sending [dap_access_cmsis_dap]
0098336 D   USB OUT> (33) 05 00 06 05 fc ed 00 e0 0d 01 00 00 01 08 00 00 00 00 01 12 00 00 23 05 0c ed 00 e0 0d 01 00 fa 05 [pyusb_backend]
0098338 D [cmd:546] New _Command [dap_access_cmsis_dap]
0098338 D [cmd:545] _read_packet: reading [dap_access_cmsis_dap]
0098340 D   USB IN < (64) 05 06 01 00 00 00 01 f0 00 00 01 00 00 00 00 00 00 00 00 03 00 00 00 b0 00 00 00 2b 00 00 00 00 00 00 00 0d 00 00 00 e0 00 00 00 05 00 00 00 b1 [pyusb_backend]
0098340 D   USB RD < (64) 05 06 01 00 00 00 01 f0 00 00 01 00 00 00 00 00 00 00 00 03 00 00 00 b0 00 00 00 2b 00 00 00 00 00 00 00 0d 00 00 00 e0 00 00 00 05 00 00 00 b1 [pyusb_backend]
0098440 D Sending notification to 2 subscribers: <Notification@0x7fa08bb3df10 event=<Event.POST_RESET: 8> source=<pyocd.coresight.cortex_m.CortexM object at 0x7fa08bb374d0> data=None> [notification]
0098441 D read_mem:002096 (ap=0x0; addr=0xe000edf0, size=32) { [ap]
0098441 D write_dp:002098 (addr=0x00000008) = 0x00000000 [dap]
0098441 D [cmd:546] get_request_space(1, 08:w)[wc=0, rc=0, ba=1->1] -> (sz=1, free=14) [dap_access_cmsis_dap]
0098441 D [cmd:546] add(1, 08:w) -> [wc=1, rc=0, ba=1] [dap_access_cmsis_dap]
0098441 D trace: write_dp(addr=0x00000008, data=0x00000000) [cmsis_dap_probe]
0098442 D write_ap:002097 (addr=0x00000000) = 0x23000012 [dap]
0098442 D [cmd:546] get_request_space(1, 01:w)[wc=1, rc=0, ba=1->0] -> (sz=1, free=11, delta=-253) [dap_access_cmsis_dap]
0098442 D [cmd:546] add(1, 01:w) -> [wc=2, rc=0, ba=0] [dap_access_cmsis_dap]
0098442 D trace: write_ap(addr=0x00000000, data=0x23000012) [cmsis_dap_probe]
0098442 D write_ap:002099 (addr=0x00000004) = 0xe000edf0 [dap]
0098442 D [cmd:546] get_request_space(1, 05:w)[wc=2, rc=0, ba=0->0] -> (sz=1, free=10, delta=-252) [dap_access_cmsis_dap]
0098442 D [cmd:546] add(1, 05:w) -> [wc=3, rc=0, ba=0] [dap_access_cmsis_dap]
0098442 D trace: write_ap(addr=0x00000004, data=0xe000edf0) [cmsis_dap_probe]
0098443 D trace: read_ap(addr=0x0000000c) -> ... [cmsis_dap_probe]
0098443 D [cmd:546] get_request_space(1, 0f:r)[wc=3, rc=0, ba=0->0] -> (sz=1, free=15, delta=-251) [dap_access_cmsis_dap]
0098443 D [cmd:546] add(1, 0f:r) -> [wc=3, rc=1, ba=0] [dap_access_cmsis_dap]
0098443 D read_ap:002100 (addr=0x0000000c) -> ... [dap]
0098444 D flush: sending cmd:546; reading 0 outstanding [dap_access_cmsis_dap]
0098444 D [cmd:546] _send_packet: sending [dap_access_cmsis_dap]
0098444 D   USB OUT> (19) 05 00 04 08 00 00 00 00 01 12 00 00 23 05 f0 ed 00 e0 0f [pyusb_backend]
0098446 D [cmd:547] New _Command [dap_access_cmsis_dap]
0098446 D [cmd:546] _read_packet: reading [dap_access_cmsis_dap]
0098447 D   USB IN < (64) 05 04 01 03 00 03 02 f0 00 00 01 00 00 00 00 00 00 00 00 03 00 00 00 b0 00 00 00 2b 00 00 00 00 00 00 00 0d 00 00 00 e0 00 00 00 05 00 00 00 b1 [pyusb_backend]
0098447 D   USB RD < (64) 05 04 01 03 00 03 02 f0 00 00 01 00 00 00 00 00 00 00 00 03 00 00 00 b0 00 00 00 2b 00 00 00 00 00 00 00 0d 00 00 00 e0 00 00 00 05 00 00 00 b1 [pyusb_backend]
0098447 D trace: ... read_ap(addr=0x0000000c) -> 0x02030003 [cmsis_dap_probe]
0098448 D read_ap:002100 ...(addr=0x0000000c) -> 0x02030003 [dap]
0098448 D read_mem:002096 (ap=0x0; addr=0xe000edf0, size=32) -> 0x02030003 } [ap]
0098448 D read_mem:002101 (ap=0x0; addr=0xe000edf0, size=32) { [ap]
0098448 D write_ap:002102 cached (ap=0x0; addr=0x00000000) = 0x23000012 [ap]
0098448 D write_ap:002103 (addr=0x00000004) = 0xe000edf0 [dap]
0098448 D [cmd:547] get_request_space(1, 05:w)[wc=0, rc=0, ba=1->1] -> (sz=1, free=14) [dap_access_cmsis_dap]
0098449 D [cmd:547] add(1, 05:w) -> [wc=1, rc=0, ba=1] [dap_access_cmsis_dap]
0098449 D trace: write_ap(addr=0x00000004, data=0xe000edf0) [cmsis_dap_probe]
0098449 D trace: read_ap(addr=0x0000000c) -> ... [cmsis_dap_probe]
0098449 D [cmd:547] get_request_space(1, 0f:r)[wc=1, rc=0, ba=1->0] -> (sz=1, free=15, delta=-253) [dap_access_cmsis_dap]
0098449 D [cmd:547] add(1, 0f:r) -> [wc=1, rc=1, ba=0] [dap_access_cmsis_dap]
0098449 D read_ap:002104 (addr=0x0000000c) -> ... [dap]
0098449 D flush: sending cmd:547; reading 0 outstanding [dap_access_cmsis_dap]
0098449 D [cmd:547] _send_packet: sending [dap_access_cmsis_dap]
0098450 D   USB OUT> (9) 05 00 02 05 f0 ed 00 e0 0f [pyusb_backend]
0098451 D [cmd:548] New _Command [dap_access_cmsis_dap]
0098451 D [cmd:547] _read_packet: reading [dap_access_cmsis_dap]
0098452 D   USB IN < (64) 05 02 01 03 00 03 00 f0 00 00 01 00 00 00 00 00 00 00 00 03 00 00 00 b0 00 00 00 2b 00 00 00 00 00 00 00 0d 00 00 00 e0 00 00 00 05 00 00 00 b1 [pyusb_backend]
0098452 D   USB RD < (64) 05 02 01 03 00 03 00 f0 00 00 01 00 00 00 00 00 00 00 00 03 00 00 00 b0 00 00 00 2b 00 00 00 00 00 00 00 0d 00 00 00 e0 00 00 00 05 00 00 00 b1 [pyusb_backend]
0098452 D trace: ... read_ap(addr=0x0000000c) -> 0x00030003 [cmsis_dap_probe]
0098452 D read_ap:002104 ...(addr=0x0000000c) -> 0x00030003 [dap]
0098453 D read_mem:002101 (ap=0x0; addr=0xe000edf0, size=32) -> 0x00030003 } [ap]
0098453 D read_mem:002105 (ap=0x0; addr=0xe000edf0, size=32) { [ap]
0098453 D write_ap:002106 cached (ap=0x0; addr=0x00000000) = 0x23000012 [ap]
0098453 D write_ap:002107 (addr=0x00000004) = 0xe000edf0 [dap]
0098453 D [cmd:548] get_request_space(1, 05:w)[wc=0, rc=0, ba=1->1] -> (sz=1, free=14) [dap_access_cmsis_dap]
0098454 D [cmd:548] add(1, 05:w) -> [wc=1, rc=0, ba=1] [dap_access_cmsis_dap]
0098454 D trace: write_ap(addr=0x00000004, data=0xe000edf0) [cmsis_dap_probe]
0098454 D trace: read_ap(addr=0x0000000c) -> ... [cmsis_dap_probe]
0098454 D [cmd:548] get_request_space(1, 0f:r)[wc=1, rc=0, ba=1->0] -> (sz=1, free=15, delta=-253) [dap_access_cmsis_dap]
0098454 D [cmd:548] add(1, 0f:r) -> [wc=1, rc=1, ba=0] [dap_access_cmsis_dap]
0098455 D read_ap:002108 (addr=0x0000000c) -> ... [dap]
0098455 D flush: sending cmd:548; reading 0 outstanding [dap_access_cmsis_dap]
0098455 D [cmd:548] _send_packet: sending [dap_access_cmsis_dap]
0098455 D   USB OUT> (9) 05 00 02 05 f0 ed 00 e0 0f [pyusb_backend]
0098457 D [cmd:549] New _Command [dap_access_cmsis_dap]
0098457 D [cmd:548] _read_packet: reading [dap_access_cmsis_dap]
0098458 D   USB IN < (64) 05 02 01 03 00 03 00 f0 00 00 01 00 00 00 00 00 00 00 00 03 00 00 00 b0 00 00 00 2b 00 00 00 00 00 00 00 0d 00 00 00 e0 00 00 00 05 00 00 00 b1 [pyusb_backend]
0098458 D   USB RD < (64) 05 02 01 03 00 03 00 f0 00 00 01 00 00 00 00 00 00 00 00 03 00 00 00 b0 00 00 00 2b 00 00 00 00 00 00 00 0d 00 00 00 e0 00 00 00 05 00 00 00 b1 [pyusb_backend]
0098458 D trace: ... read_ap(addr=0x0000000c) -> 0x00030003 [cmsis_dap_probe]
0098458 D read_ap:002108 ...(addr=0x0000000c) -> 0x00030003 [dap]
0098459 D read_mem:002105 (ap=0x0; addr=0xe000edf0, size=32) -> 0x00030003 } [ap]
0098459 D read_mem:002109 (ap=0x0; addr=0xe000edf0, size=32) { [ap]
0098459 D write_ap:002110 cached (ap=0x0; addr=0x00000000) = 0x23000012 [ap]
0098459 D write_ap:002111 (addr=0x00000004) = 0xe000edf0 [dap]
0098459 D [cmd:549] get_request_space(1, 05:w)[wc=0, rc=0, ba=1->1] -> (sz=1, free=14) [dap_access_cmsis_dap]
0098460 D [cmd:549] add(1, 05:w) -> [wc=1, rc=0, ba=1] [dap_access_cmsis_dap]
0098460 D trace: write_ap(addr=0x00000004, data=0xe000edf0) [cmsis_dap_probe]
0098460 D trace: read_ap(addr=0x0000000c) -> ... [cmsis_dap_probe]
0098460 D [cmd:549] get_request_space(1, 0f:r)[wc=1, rc=0, ba=1->0] -> (sz=1, free=15, delta=-253) [dap_access_cmsis_dap]
0098461 D [cmd:549] add(1, 0f:r) -> [wc=1, rc=1, ba=0] [dap_access_cmsis_dap]
0098461 D read_ap:002112 (addr=0x0000000c) -> ... [dap]
0098461 D flush: sending cmd:549; reading 0 outstanding [dap_access_cmsis_dap]
0098461 D [cmd:549] _send_packet: sending [dap_access_cmsis_dap]
0098461 D   USB OUT> (9) 05 00 02 05 f0 ed 00 e0 0f [pyusb_backend]
0098463 D [cmd:550] New _Command [dap_access_cmsis_dap]
0098463 D [cmd:549] _read_packet: reading [dap_access_cmsis_dap]
0098464 D   USB IN < (64) 05 02 01 03 00 03 00 f0 00 00 01 00 00 00 00 00 00 00 00 03 00 00 00 b0 00 00 00 2b 00 00 00 00 00 00 00 0d 00 00 00 e0 00 00 00 05 00 00 00 b1 [pyusb_backend]
0098464 D   USB RD < (64) 05 02 01 03 00 03 00 f0 00 00 01 00 00 00 00 00 00 00 00 03 00 00 00 b0 00 00 00 2b 00 00 00 00 00 00 00 0d 00 00 00 e0 00 00 00 05 00 00 00 b1 [pyusb_backend]
0098464 D trace: ... read_ap(addr=0x0000000c) -> 0x00030003 [cmsis_dap_probe]
0098465 D read_ap:002112 ...(addr=0x0000000c) -> 0x00030003 [dap]
0098465 D read_mem:002109 (ap=0x0; addr=0xe000edf0, size=32) -> 0x00030003 } [ap]
0098465 D write_mem:002113 (ap=0x0; addr=0xe000edf4, size=32) = 0x00000010 { [ap]
0098465 D write_ap:002114 cached (ap=0x0; addr=0x00000000) = 0x23000012 [ap]
0098465 D write_ap:002115 (addr=0x00000004) = 0xe000edf4 [dap]
0098466 D [cmd:550] get_request_space(1, 05:w)[wc=0, rc=0, ba=1->1] -> (sz=1, free=14) [dap_access_cmsis_dap]
0098466 D [cmd:550] add(1, 05:w) -> [wc=1, rc=0, ba=1] [dap_access_cmsis_dap]
0098466 D trace: write_ap(addr=0x00000004, data=0xe000edf4) [cmsis_dap_probe]
0098466 D write_ap:002116 (addr=0x0000000c) = 0x00000010 [dap]
0098466 D [cmd:550] get_request_space(1, 0d:w)[wc=1, rc=0, ba=1->0] -> (sz=1, free=11, delta=-253) [dap_access_cmsis_dap]
0098466 D [cmd:550] add(1, 0d:w) -> [wc=2, rc=0, ba=0] [dap_access_cmsis_dap]
0098466 D trace: write_ap(addr=0x0000000c, data=0x00000010) [cmsis_dap_probe]
0098467 D write_mem:002113 } [ap]
0098467 D read_mem:002117 (ap=0x0; addr=0xe000edf0, size=32) { [ap]
0098467 D write_ap:002118 cached (ap=0x0; addr=0x00000000) = 0x23000012 [ap]
0098467 D write_ap:002119 (addr=0x00000004) = 0xe000edf0 [dap]
0098467 D [cmd:550] get_request_space(1, 05:w)[wc=2, rc=0, ba=0->0] -> (sz=1, free=10, delta=-252) [dap_access_cmsis_dap]
0098467 D [cmd:550] add(1, 05:w) -> [wc=3, rc=0, ba=0] [dap_access_cmsis_dap]
0098467 D trace: write_ap(addr=0x00000004, data=0xe000edf0) [cmsis_dap_probe]
0098467 D trace: read_ap(addr=0x0000000c) -> ... [cmsis_dap_probe]
0098467 D [cmd:550] get_request_space(1, 0f:r)[wc=3, rc=0, ba=0->0] -> (sz=1, free=15, delta=-251) [dap_access_cmsis_dap]
0098468 D [cmd:550] add(1, 0f:r) -> [wc=3, rc=1, ba=0] [dap_access_cmsis_dap]
0098468 D read_ap:002120 (addr=0x0000000c) -> ... [dap]
0098468 D read_mem:002121 (ap=0x0; addr=0xe000edf8, size=32) { [ap]
0098468 D write_ap:002122 cached (ap=0x0; addr=0x00000000) = 0x23000012 [ap]
0098468 D write_ap:002123 (addr=0x00000004) = 0xe000edf8 [dap]
0098468 D [cmd:550] get_request_space(1, 05:w)[wc=3, rc=1, ba=0->0] -> (sz=1, free=9, delta=-250) [dap_access_cmsis_dap]
0098468 D [cmd:550] add(1, 05:w) -> [wc=4, rc=1, ba=0] [dap_access_cmsis_dap]
0098468 D trace: write_ap(addr=0x00000004, data=0xe000edf8) [cmsis_dap_probe]
0098469 D trace: read_ap(addr=0x0000000c) -> ... [cmsis_dap_probe]
0098469 D [cmd:550] get_request_space(1, 0f:r)[wc=4, rc=1, ba=0->0] -> (sz=1, free=14, delta=-249) [dap_access_cmsis_dap]
0098469 D [cmd:550] add(1, 0f:r) -> [wc=4, rc=2, ba=0] [dap_access_cmsis_dap]
0098469 D read_ap:002124 (addr=0x0000000c) -> ... [dap]
0098469 D flush: sending cmd:550; reading 0 outstanding [dap_access_cmsis_dap]
0098469 D [cmd:550] _send_packet: sending [dap_access_cmsis_dap]
0098469 D   USB OUT> (25) 05 00 06 05 f4 ed 00 e0 0d 10 00 00 00 05 f0 ed 00 e0 0f 05 f8 ed 00 e0 0f [pyusb_backend]
0098471 D [cmd:551] New _Command [dap_access_cmsis_dap]
0098471 D [cmd:550] _read_packet: reading [dap_access_cmsis_dap]
0098473 D   USB IN < (64) 05 06 01 03 00 03 00 00 00 00 01 00 00 00 00 00 00 00 00 03 00 00 00 b0 00 00 00 2b 00 00 00 00 00 00 00 0d 00 00 00 e0 00 00 00 05 00 00 00 b1 [pyusb_backend]
0098473 D   USB RD < (64) 05 06 01 03 00 03 00 00 00 00 01 00 00 00 00 00 00 00 00 03 00 00 00 b0 00 00 00 2b 00 00 00 00 00 00 00 0d 00 00 00 e0 00 00 00 05 00 00 00 b1 [pyusb_backend]
0098473 D trace: ... read_ap(addr=0x0000000c) -> 0x00030003 [cmsis_dap_probe]
0098473 D read_ap:002120 ...(addr=0x0000000c) -> 0x00030003 [dap]
0098474 D read_mem:002117 ...(ap=0x0; addr=0xe000edf0, size=32) -> 0x00030003 } [ap]
0098474 D trace: ... read_ap(addr=0x0000000c) -> 0x01000000 [cmsis_dap_probe]
0098474 D read_ap:002124 ...(addr=0x0000000c) -> 0x01000000 [dap]
0098474 D read_mem:002121 ...(ap=0x0; addr=0xe000edf8, size=32) -> 0x01000000 } [ap]
0098474 D clear reset catch, core 0 [cortex_m]
0098474 D read_mem:002125 (ap=0x0; addr=0xe000edfc, size=32) { [ap]
0098475 D write_ap:002126 cached (ap=0x0; addr=0x00000000) = 0x23000012 [ap]
0098475 D write_ap:002127 (addr=0x00000004) = 0xe000edfc [dap]
0098475 D [cmd:551] get_request_space(1, 05:w)[wc=0, rc=0, ba=1->1] -> (sz=1, free=14) [dap_access_cmsis_dap]
0098475 D [cmd:551] add(1, 05:w) -> [wc=1, rc=0, ba=1] [dap_access_cmsis_dap]
0098475 D trace: write_ap(addr=0x00000004, data=0xe000edfc) [cmsis_dap_probe]
0098475 D trace: read_ap(addr=0x0000000c) -> ... [cmsis_dap_probe]
0098476 D [cmd:551] get_request_space(1, 0f:r)[wc=1, rc=0, ba=1->0] -> (sz=1, free=15, delta=-253) [dap_access_cmsis_dap]
0098476 D [cmd:551] add(1, 0f:r) -> [wc=1, rc=1, ba=0] [dap_access_cmsis_dap]
0098476 D read_ap:002128 (addr=0x0000000c) -> ... [dap]
0098476 D flush: sending cmd:551; reading 0 outstanding [dap_access_cmsis_dap]
0098476 D [cmd:551] _send_packet: sending [dap_access_cmsis_dap]
0098476 D   USB OUT> (9) 05 00 02 05 fc ed 00 e0 0f [pyusb_backend]
0098478 D [cmd:552] New _Command [dap_access_cmsis_dap]
0098478 D [cmd:551] _read_packet: reading [dap_access_cmsis_dap]
0098479 D   USB IN < (64) 05 02 01 01 00 00 01 00 00 00 01 00 00 00 00 00 00 00 00 03 00 00 00 b0 00 00 00 2b 00 00 00 00 00 00 00 0d 00 00 00 e0 00 00 00 05 00 00 00 b1 [pyusb_backend]
0098479 D   USB RD < (64) 05 02 01 01 00 00 01 00 00 00 01 00 00 00 00 00 00 00 00 03 00 00 00 b0 00 00 00 2b 00 00 00 00 00 00 00 0d 00 00 00 e0 00 00 00 05 00 00 00 b1 [pyusb_backend]
0098479 D trace: ... read_ap(addr=0x0000000c) -> 0x01000001 [cmsis_dap_probe]
0098480 D read_ap:002128 ...(addr=0x0000000c) -> 0x01000001 [dap]
0098480 D read_mem:002125 (ap=0x0; addr=0xe000edfc, size=32) -> 0x01000001 } [ap]
0098480 D write_mem:002129 (ap=0x0; addr=0xe000edfc, size=32) = 0x01000000 { [ap]
0098480 D write_ap:002130 cached (ap=0x0; addr=0x00000000) = 0x23000012 [ap]
0098481 D write_ap:002131 (addr=0x00000004) = 0xe000edfc [dap]
0098481 D [cmd:552] get_request_space(1, 05:w)[wc=0, rc=0, ba=1->1] -> (sz=1, free=14) [dap_access_cmsis_dap]
0098481 D [cmd:552] add(1, 05:w) -> [wc=1, rc=0, ba=1] [dap_access_cmsis_dap]
0098481 D trace: write_ap(addr=0x00000004, data=0xe000edfc) [cmsis_dap_probe]
0098481 D write_ap:002132 (addr=0x0000000c) = 0x01000000 [dap]
0098482 D [cmd:552] get_request_space(1, 0d:w)[wc=1, rc=0, ba=1->0] -> (sz=1, free=11, delta=-253) [dap_access_cmsis_dap]
0098482 D [cmd:552] add(1, 0d:w) -> [wc=2, rc=0, ba=0] [dap_access_cmsis_dap]
0098482 D trace: write_ap(addr=0x0000000c, data=0x01000000) [cmsis_dap_probe]
0098482 D write_mem:002129 } [ap]
0098482 D read_mem:002133 (ap=0x0; addr=0xe000edf0, size=32) { [ap]
0098483 D write_ap:002134 cached (ap=0x0; addr=0x00000000) = 0x23000012 [ap]
0098483 D write_ap:002135 (addr=0x00000004) = 0xe000edf0 [dap]
0098483 D [cmd:552] get_request_space(1, 05:w)[wc=2, rc=0, ba=0->0] -> (sz=1, free=10, delta=-252) [dap_access_cmsis_dap]
0098483 D [cmd:552] add(1, 05:w) -> [wc=3, rc=0, ba=0] [dap_access_cmsis_dap]
0098483 D trace: write_ap(addr=0x00000004, data=0xe000edf0) [cmsis_dap_probe]
0098483 D trace: read_ap(addr=0x0000000c) -> ... [cmsis_dap_probe]
0098484 D [cmd:552] get_request_space(1, 0f:r)[wc=3, rc=0, ba=0->0] -> (sz=1, free=15, delta=-251) [dap_access_cmsis_dap]
0098484 D [cmd:552] add(1, 0f:r) -> [wc=3, rc=1, ba=0] [dap_access_cmsis_dap]
0098484 D read_ap:002136 (addr=0x0000000c) -> ... [dap]
0098484 D flush: sending cmd:552; reading 0 outstanding [dap_access_cmsis_dap]
0098484 D [cmd:552] _send_packet: sending [dap_access_cmsis_dap]
0098484 D   USB OUT> (19) 05 00 04 05 fc ed 00 e0 0d 00 00 00 01 05 f0 ed 00 e0 0f [pyusb_backend]
0098486 D [cmd:553] New _Command [dap_access_cmsis_dap]
0098486 D [cmd:552] _read_packet: reading [dap_access_cmsis_dap]
0098487 D   USB IN < (64) 05 04 01 03 00 03 00 00 00 00 01 00 00 00 00 00 00 00 00 03 00 00 00 b0 00 00 00 2b 00 00 00 00 00 00 00 0d 00 00 00 e0 00 00 00 05 00 00 00 b1 [pyusb_backend]
0098487 D   USB RD < (64) 05 04 01 03 00 03 00 00 00 00 01 00 00 00 00 00 00 00 00 03 00 00 00 b0 00 00 00 2b 00 00 00 00 00 00 00 0d 00 00 00 e0 00 00 00 05 00 00 00 b1 [pyusb_backend]
0098487 D trace: ... read_ap(addr=0x0000000c) -> 0x00030003 [cmsis_dap_probe]
0098488 D read_ap:002136 ...(addr=0x0000000c) -> 0x00030003 [dap]
0098488 D read_mem:002133 (ap=0x0; addr=0xe000edf0, size=32) -> 0x00030003 } [ap]
Successfully halted device on reset